; CSV, generated by libsigrok4DSL 0.2.0 on Wed May 19 11:28:33 2021
; Channels (2/2)
; Sample rate: 1 MHz
; Sample count: 10 k Samples
I[10A], Ue[V]
3.622,3.543
3.661,3.504
3.661,3.504
3.661,3.504
3.661,3.543
3.661,3.543
3.661,3.583
3.661,3.543
3.661,3.504
3.701,3.504
3.701,3.504
3.701,3.425
3.740,3.504
3.740,3.504
3.740,3.504
3.740,3.504
3.740,3.543
3.740,3.543
3.740,3.504
3.780,3.425
3.780,3.425
3.780,3.386
3.819,3.425
3.819,3.425
3.819,3.425
3.819,3.425
3.819,3.425
3.780,3.425
3.819,3.465
3.819,3.425
3.819,3.425
3.819,3.425
3.819,3.425
3.858,3.425
3.819,3.425
3.819,3.425
3.819,3.425
3.819,3.425
3.819,3.425
3.858,3.425
3.858,3.425
3.858,3.346
3.858,3.425
3.858,3.425
3.858,3.425
3.858,3.425
3.819,3.425
3.858,3.465
3.858,3.425
3.858,3.425
3.898,3.386
3.858,3.346
3.898,3.386
3.858,3.425
3.858,3.425
3.858,3.425
3.858,3.425
3.858,3.425
3.858,3.425
3.898,3.386
3.858,3.425
3.898,3.386
3.898,3.386
3.898,3.386
3.898,3.425
3.858,3.425
3.858,3.425
3.858,3.425
3.898,3.425
3.898,3.386
3.898,3.386
3.937,3.425
3.898,3.386
3.898,3.386
3.898,3.425
3.858,3.386
3.858,3.425
3.898,3.425
3.898,3.386
3.937,3.386
3.937,3.386
3.937,3.346
3.937,3.346
3.937,3.346
3.898,3.346
3.898,3.425
3.898,3.386
3.858,3.386
3.898,3.386
3.898,3.386
3.898,3.346
3.937,3.346
3.898,3.346
3.937,3.346
3.898,3.386
3.898,3.386
3.858,3.386
3.898,3.425
3.858,3.386
3.898,3.346
3.898,3.386
3.898,3.346
3.898,3.386
3.898,3.386
3.898,3.386
3.898,3.346
3.858,3.425
3.858,3.425
3.858,3.386
3.898,3.386
3.898,3.346
3.898,3.346
3.937,3.307
3.898,3.346
3.898,3.386
3.858,3.425
3.858,3.425
3.898,3.346
3.858,3.386
3.898,3.386
3.898,3.346
3.937,3.346
3.898,3.386
3.898,3.346
3.898,3.346
3.858,3.386
3.858,3.346
3.858,3.386
3.858,3.386
3.858,3.386
3.898,3.346
3.898,3.307
3.898,3.346
3.898,3.346
3.898,3.386
3.898,3.386
3.858,3.386
3.858,3.425
3.858,3.386
3.858,3.346
3.858,3.386
3.898,3.346
3.898,3.307
3.898,3.346
3.858,3.386
3.858,3.386
3.858,3.386
3.858,3.346
3.858,3.386
3.858,3.346
3.858,3.346
3.898,3.346
3.858,3.346
3.858,3.346
3.858,3.346
3.858,3.346
3.858,3.386
3.858,3.386
3.858,3.346
3.858,3.386
3.858,3.346
3.858,3.346
3.858,3.346
3.858,3.346
3.858,3.346
3.858,3.346
3.858,3.346
3.819,3.386
3.819,3.386
3.858,3.346
3.858,3.386
3.858,3.346
3.858,3.307
3.858,3.346
3.858,3.386
3.858,3.386
3.819,3.386
3.819,3.386
3.858,3.386
3.819,3.346
3.858,3.346
3.858,3.307
3.858,3.307
3.819,3.268
3.858,3.346
3.819,3.386
3.858,3.346
3.819,3.346
3.819,3.346
3.819,3.386
3.819,3.346
3.858,3.346
3.858,3.386
3.858,3.346
3.819,3.346
3.819,3.346
3.819,3.346
3.819,3.386
3.819,3.386
3.819,3.346
3.819,3.346
3.819,3.346
3.819,3.346
3.819,3.346
3.819,3.346
3.819,3.386
3.819,3.346
3.819,3.425
3.819,3.425
3.819,3.386
3.819,3.346
3.819,3.346
3.819,3.346
3.819,3.346
3.819,3.386
3.819,3.386
3.819,3.386
3.819,3.346
3.819,3.386
3.819,3.386
3.819,3.386
3.819,3.346
3.819,3.386
3.819,3.346
3.819,3.346
3.819,3.386
3.819,3.386
3.780,3.425
3.819,3.386
3.819,3.346
3.819,3.346
3.819,3.307
3.819,3.307
3.819,3.346
3.819,3.346
3.819,3.386
3.780,3.346
3.780,3.346
3.780,3.386
3.780,3.346
3.780,3.386
3.819,3.346
3.819,3.268
3.819,3.307
3.819,3.346
3.819,3.346
3.780,3.386
3.780,3.307
3.780,3.346
3.780,3.425
3.819,3.346
3.819,3.346
3.819,3.346
3.780,3.346
3.780,3.346
3.819,3.386
3.740,3.386
3.780,3.386
3.780,3.386
3.780,3.386
3.780,3.346
3.780,3.346
3.819,3.386
3.819,3.307
3.819,3.346
3.780,3.386
3.780,3.386
3.780,3.425
3.740,3.425
3.740,3.386
3.780,3.346
3.780,3.425
3.780,3.346
3.819,3.346
3.780,3.346
3.780,3.386
3.780,3.346
3.780,3.346
3.740,3.386
3.780,3.346
3.780,3.346
3.780,3.268
3.740,3.307
3.819,3.268
3.780,3.307
3.740,3.346
3.740,3.346
3.740,3.346
3.740,3.346
3.740,3.346
3.740,3.346
3.780,3.346
3.780,3.346
3.780,3.346
3.740,3.346
3.740,3.346
3.740,3.386
3.740,3.386
3.740,3.425
3.740,3.386
3.740,3.346
3.780,3.346
3.740,3.346
3.780,3.346
3.780,3.346
3.740,3.346
3.701,3.425
3.740,3.386
3.740,3.386
3.740,3.386
3.740,3.386
3.740,3.346
3.780,3.307
3.780,3.346
3.780,3.346
3.740,3.386
3.740,3.386
3.701,3.425
3.701,3.386
3.740,3.386
3.740,3.386
3.740,3.346
3.740,3.346
3.780,3.346
3.780,3.346
3.740,3.346
3.740,3.386
3.701,3.386
3.740,3.425
3.740,3.346
3.740,3.346
3.740,3.346
3.740,3.346
3.740,3.346
3.740,3.346
3.740,3.346
3.740,3.346
3.701,3.386
3.701,3.386
3.701,3.386
3.701,3.386
3.740,3.346
3.740,3.307
3.740,3.268
3.740,3.346
3.740,3.386
3.701,3.386
3.740,3.386
3.701,3.346
3.701,3.386
3.701,3.346
3.701,3.346
3.740,3.346
3.740,3.346
3.740,3.346
3.740,3.386
3.740,3.386
3.701,3.386
3.701,3.425
3.701,3.386
3.701,3.386
3.701,3.386
3.740,3.346
3.740,3.346
3.740,3.386
3.740,3.386
3.701,3.386
3.701,3.386
3.701,3.425
3.701,3.425
3.701,3.386
3.701,3.346
3.740,3.307
3.701,3.268
3.740,3.346
3.701,3.346
3.701,3.386
3.701,3.386
3.701,3.228
3.701,3.346
3.701,3.346
3.701,3.346
3.701,3.346
3.701,3.268
3.740,3.346
3.740,3.346
3.701,3.346
3.701,3.346
3.701,3.543
3.701,3.346
3.701,3.386
3.701,3.346
3.701,3.307
3.701,3.307
3.740,3.346
3.701,3.386
3.701,3.386
3.701,3.386
3.661,3.268
3.701,3.386
3.701,3.386
3.701,3.346
3.740,3.346
3.701,3.425
3.701,3.346
3.701,3.386
3.701,3.386
3.661,3.346
3.661,3.425
3.701,3.425
3.661,3.386
3.701,3.386
3.701,3.346
3.701,3.346
3.701,3.346
3.701,3.386
3.701,3.425
3.701,3.386
3.661,3.386
3.661,3.386
3.661,3.386
3.701,3.386
3.701,3.346
3.701,3.307
3.701,3.346
3.701,3.386
3.701,3.386
3.661,3.425
3.661,3.386
3.661,3.425
3.661,3.386
3.701,3.386
3.701,3.346
3.701,3.268
3.701,3.386
3.701,3.346
3.701,3.386
3.701,3.425
3.661,3.425
3.661,3.425
3.661,3.386
3.701,3.386
3.701,3.386
3.701,3.346
3.701,3.346
3.701,3.386
3.701,3.386
3.661,3.425
3.661,3.425
3.661,3.386
3.701,3.386
3.701,3.346
3.661,3.346
3.701,3.386
3.701,3.346
3.701,3.346
3.701,3.386
3.661,3.386
3.661,3.386
3.661,3.386
3.661,3.386
3.661,3.386
3.701,3.346
3.701,3.386
3.701,3.346
3.701,3.346
3.661,3.386
3.661,3.386
3.661,3.425
3.661,3.425
3.661,3.386
3.661,3.346
3.701,3.346
3.701,3.268
3.701,3.346
3.701,3.346
3.661,3.386
3.661,3.386
3.661,3.386
3.661,3.386
3.661,3.386
3.661,3.346
3.701,3.346
3.701,3.346
3.701,3.346
3.701,3.346
3.661,3.346
3.661,3.307
3.661,3.386
3.661,3.346
3.661,3.386
3.661,3.386
3.661,3.386
3.701,3.346
3.661,3.386
3.661,3.386
3.701,3.386
3.661,3.386
3.661,3.425
3.661,3.425
3.661,3.386
3.661,3.386
3.661,3.346
3.661,3.346
3.661,3.386
3.661,3.386
3.661,3.386
3.661,3.425
3.661,3.425
3.661,3.425
3.661,3.425
3.661,3.425
3.661,3.386
3.661,3.386
3.701,3.346
3.661,3.386
3.661,3.425
3.661,3.425
3.661,3.425
3.661,3.386
3.661,3.425
3.661,3.386
3.661,3.386
3.661,3.346
3.661,3.386
3.661,3.386
3.661,3.386
3.661,3.386
3.661,3.386
3.661,3.386
3.661,3.386
3.661,3.386
3.661,3.346
3.661,3.346
3.701,3.386
3.701,3.386
3.661,3.346
3.661,3.386
3.661,3.386
3.661,3.425
3.661,3.386
3.661,3.386
3.661,3.386
3.661,3.346
3.701,3.346
3.661,3.386
3.661,3.386
3.661,3.386
3.661,3.425
3.622,3.346
3.661,3.386
3.661,3.386
3.661,3.386
3.661,3.346
3.661,3.346
3.661,3.346
3.661,3.386
3.661,3.386
3.661,3.425
3.661,3.346
3.661,3.386
3.661,3.386
3.661,3.386
3.661,3.386
3.661,3.386
3.661,3.386
3.661,3.386
3.661,3.386
3.661,3.425
3.661,3.504
3.661,3.386
3.661,3.386
3.661,3.386
3.661,3.386
3.661,3.386
3.661,3.386
3.661,3.386
3.661,3.386
3.661,3.425
3.661,3.425
3.661,3.386
3.661,3.386
3.661,3.386
3.661,3.346
3.661,3.307
3.661,3.346
3.661,3.386
3.661,3.386
3.661,3.386
3.661,3.425
3.661,3.386
3.661,3.386
3.661,3.386
3.661,3.346
3.701,3.346
3.661,3.346
3.661,3.386
3.661,3.386
3.661,3.425
3.661,3.346
3.661,3.386
3.661,3.386
3.661,3.386
3.661,3.386
3.661,3.386
3.661,3.386
3.661,3.386
3.661,3.425
3.661,3.425
3.661,3.543
3.622,3.425
3.661,3.386
3.661,3.386
3.661,3.386
3.661,3.386
3.661,3.386
3.661,3.425
3.661,3.425
3.622,3.425
3.661,3.425
3.622,3.425
3.661,3.425
3.661,3.386
3.661,3.386
3.701,3.386
3.701,3.386
3.661,3.386
3.661,3.425
3.661,3.386
3.661,3.386
3.661,3.425
3.661,3.386
3.661,3.386
3.661,3.346
3.661,3.386
3.661,3.386
3.661,3.386
3.661,3.386
3.661,3.268
3.622,3.425
3.622,3.386
3.661,3.386
3.661,3.386
3.661,3.346
3.661,3.346
3.661,3.386
3.661,3.425
3.661,3.425
3.661,3.425
3.661,3.346
3.622,3.425
3.661,3.425
3.661,3.386
3.661,3.386
3.661,3.346
3.661,3.386
3.661,3.386
3.661,3.425
3.661,3.425
3.622,3.425
3.661,3.425
3.661,3.425
3.661,3.425
3.661,3.425
3.661,3.386
3.661,3.346
3.661,3.386
3.661,3.386
3.661,3.425
3.661,3.386
3.622,3.386
3.661,3.386
3.661,3.386
3.661,3.346
3.661,3.386
3.661,3.386
3.661,3.386
3.661,3.425
3.661,3.425
3.661,3.386
3.622,3.425
3.622,3.386
3.661,3.386
3.661,3.346
3.661,3.346
3.661,3.346
3.661,3.386
3.661,3.386
3.661,3.386
3.622,3.386
3.661,3.386
3.661,3.425
3.661,3.386
3.661,3.307
3.661,3.346
3.661,3.346
3.661,3.386
3.661,3.386
3.661,3.425
3.622,3.425
3.583,3.386
3.622,3.425
3.661,3.425
3.661,3.386
3.661,3.346
3.661,3.386
3.661,3.346
3.661,3.425
3.661,3.425
3.661,3.425
3.661,3.425
3.661,3.425
3.661,3.425
3.661,3.386
3.661,3.386
3.661,3.386
3.661,3.386
3.661,3.386
3.661,3.425
3.622,3.425
3.661,3.425
3.661,3.425
3.661,3.425
3.661,3.386
3.661,3.386
3.661,3.386
3.661,3.386
3.661,3.425
3.661,3.386
3.622,3.425
3.622,3.386
3.661,3.425
3.661,3.425
3.661,3.386
3.661,3.386
3.661,3.386
3.661,3.386
3.661,3.386
3.661,3.425
3.661,3.386
3.661,3.386
3.622,3.425
3.661,3.425
3.661,3.386
3.661,3.386
3.661,3.386
3.661,3.386
3.661,3.386
3.661,3.386
3.622,3.346
3.661,3.425
3.661,3.386
3.661,3.425
3.661,3.386
3.661,3.425
3.661,3.425
3.661,3.425
3.661,3.386
3.661,3.425
3.661,3.425
3.661,3.425
3.622,3.425
3.661,3.425
3.661,3.425
3.661,3.386
3.661,3.386
3.661,3.386
3.661,3.386
3.661,3.425
3.661,3.425
3.661,3.425
3.622,3.425
3.661,3.386
3.661,3.386
3.701,3.425
3.661,3.386
3.661,3.386
3.661,3.386
3.661,3.386
3.661,3.386
3.661,3.386
3.661,3.386
3.661,3.386
3.661,3.386
3.661,3.386
3.661,3.386
3.661,3.386
3.661,3.386
3.661,3.386
3.661,3.386
3.661,3.425
3.661,3.425
3.661,3.386
3.661,3.386
3.661,3.386
3.661,3.346
3.661,3.386
3.661,3.386
3.661,3.425
3.661,3.425
3.622,3.425
3.661,3.425
3.661,3.425
3.661,3.425
3.661,3.386
3.661,3.346
3.661,3.386
3.661,3.425
3.622,3.425
3.622,3.425
3.661,3.425
3.661,3.425
3.661,3.386
3.661,3.386
3.661,3.425
3.661,3.425
3.661,3.386
3.661,3.425
3.661,3.425
3.661,3.425
3.622,3.504
3.622,3.425
3.661,3.425
3.661,3.386
3.661,3.425
3.661,3.346
3.661,3.425
3.661,3.425
3.661,3.425
3.661,3.425
3.622,3.583
3.661,3.425
3.661,3.425
3.661,3.386
3.661,3.346
3.661,3.425
3.661,3.386
3.661,3.425
3.661,3.425
3.661,3.425
3.622,3.425
3.661,3.425
3.661,3.425
3.661,3.425
3.661,3.386
3.661,3.346
3.661,3.386
3.661,3.425
3.661,3.425
3.661,3.425
3.622,3.425
3.622,3.425
3.661,3.425
3.661,3.425
3.661,3.386
3.661,3.386
3.661,3.386
3.661,3.386
3.661,3.268
3.661,3.425
3.661,3.504
3.622,3.425
3.622,3.425
3.622,3.386
3.661,3.386
3.661,3.346
3.661,3.425
3.661,3.425
3.661,3.425
3.622,3.425
3.622,3.425
3.661,3.425
3.622,3.425
3.622,3.386
3.661,3.425
3.661,3.386
3.661,3.386
3.661,3.386
3.661,3.425
3.661,3.386
3.661,3.425
3.661,3.425
3.622,3.425
3.661,3.386
3.661,3.386
3.661,3.425
3.701,3.386
3.661,3.386
3.661,3.386
3.622,3.425
3.622,3.386
3.661,3.425
3.661,3.425
3.661,3.386
3.661,3.386
3.661,3.425
3.661,3.425
3.661,3.425
3.661,3.425
3.661,3.386
3.661,3.425
3.661,3.425
3.661,3.425
3.661,3.425
3.661,3.425
3.661,3.425
3.661,3.386
3.661,3.425
3.661,3.425
3.661,3.425
3.661,3.425
3.661,3.425
3.661,3.425
3.661,3.425
3.661,3.425
3.661,3.386
3.661,3.425
3.661,3.425
3.661,3.425
3.661,3.465
3.661,3.425
3.622,3.425
3.622,3.425
3.661,3.425
3.661,3.346
3.661,3.425
3.661,3.425
3.661,3.425
3.661,3.425
3.661,3.425
3.661,3.425
3.661,3.425
3.661,3.425
3.661,3.425
3.661,3.425
3.661,3.425
3.661,3.425
3.661,3.425
3.661,3.425
3.661,3.425
3.622,3.425
3.622,3.425
3.661,3.425
3.661,3.425
3.661,3.425
3.661,3.425
3.661,3.425
3.661,3.425
3.622,3.425
3.661,3.425
3.661,3.425
3.661,3.425
3.661,3.425
3.661,3.425
3.661,3.386
3.661,3.386
3.661,3.386
3.661,3.425
3.661,3.425
3.661,3.425
3.622,3.425
3.622,3.425
3.622,3.425
3.661,3.425
3.661,3.425
3.661,3.386
3.661,3.425
3.661,3.386
3.661,3.425
3.661,3.425
3.661,3.425
3.661,3.465
3.622,3.425
3.661,3.425
3.661,3.425
3.661,3.386
3.661,3.386
3.661,3.386
3.661,3.425
3.661,3.425
3.661,3.425
3.661,3.425
3.661,3.425
3.661,3.425
3.661,3.425
3.661,3.386
3.661,3.386
3.661,3.386
3.661,3.386
3.661,3.386
3.661,3.425
3.622,3.386
3.661,3.425
3.622,3.425
3.661,3.425
3.661,3.386
3.661,3.386
3.661,3.425
3.661,3.425
3.661,3.425
3.661,3.425
3.622,3.425
3.661,3.425
3.622,3.425
3.661,3.425
3.661,3.425
3.661,3.425
3.661,3.425
3.661,3.425
3.661,3.425
3.661,3.425
3.661,3.425
3.622,3.425
3.622,3.425
3.661,3.425
3.661,3.425
3.661,3.425
3.661,3.425
3.661,3.425
3.661,3.425
3.622,3.425
3.661,3.425
3.622,3.425
3.661,3.425
3.661,3.425
3.661,3.386
3.661,3.386
3.661,3.425
3.661,3.425
3.661,3.425
3.661,3.425
3.622,3.386
3.622,3.425
3.661,3.425
3.661,3.425
3.661,3.386
3.661,3.425
3.661,3.425
3.661,3.425
3.661,3.425
3.661,3.425
3.622,3.386
3.661,3.425
3.661,3.425
3.661,3.425
3.661,3.465
3.661,3.386
3.661,3.425
3.661,3.425
3.661,3.425
3.661,3.425
3.661,3.465
3.622,3.425
3.661,3.425
3.661,3.425
3.661,3.386
3.661,3.425
3.661,3.425
3.661,3.425
3.661,3.425
3.622,3.425
3.622,3.386
3.661,3.425
3.622,3.425
3.661,3.425
3.661,3.386
3.661,3.425
3.661,3.425
3.661,3.425
3.622,3.425
3.661,3.425
3.622,3.465
3.661,3.425
3.661,3.425
3.661,3.425
3.661,3.346
3.661,3.425
3.661,3.425
3.661,3.386
3.661,3.425
3.661,3.425
3.661,3.425
3.661,3.425
3.661,3.425
3.661,3.425
3.661,3.386
3.661,3.425
3.661,3.386
3.661,3.425
3.661,3.425
3.622,3.465
3.622,3.425
3.661,3.465
3.661,3.425
3.661,3.425
3.661,3.425
3.661,3.425
3.661,3.386
3.661,3.425
3.661,3.425
3.622,3.465
3.622,3.425
3.622,3.425
3.661,3.425
3.661,3.425
3.661,3.425
3.661,3.425
3.661,3.425
3.661,3.425
3.661,3.425
3.661,3.425
3.622,3.504
3.583,3.504
3.661,3.425
3.661,3.425
3.661,3.425
3.661,3.386
3.661,3.425
3.661,3.425
3.661,3.425
3.661,3.425
3.622,3.425
3.661,3.504
3.661,3.425
3.661,3.425
3.661,3.425
3.661,3.386
3.661,3.425
3.661,3.425
3.661,3.425
3.661,3.504
3.661,3.465
3.622,3.425
3.661,3.425
3.661,3.425
3.661,3.425
3.701,3.425
3.661,3.425
3.661,3.425
3.661,3.425
3.661,3.425
3.661,3.504
3.661,3.425
3.661,3.425
3.661,3.425
3.661,3.425
3.661,3.386
3.661,3.425
3.661,3.425
3.661,3.425
3.622,3.425
3.622,3.425
3.661,3.504
3.661,3.425
3.661,3.425
3.661,3.425
3.661,3.386
3.661,3.425
3.661,3.425
3.661,3.425
3.622,3.425
3.622,3.425
3.661,3.425
3.661,3.465
3.661,3.425
3.661,3.425
3.661,3.425
3.661,3.425
3.661,3.425
3.661,3.425
3.661,3.465
3.661,3.465
3.622,3.425
3.661,3.425
3.661,3.425
3.661,3.425
3.661,3.425
3.661,3.425
3.661,3.386
3.661,3.386
3.661,3.425
3.622,3.465
3.661,3.425
3.661,3.425
3.661,3.425
3.661,3.425
3.661,3.386
3.701,3.425
3.661,3.425
3.661,3.425
3.661,3.425
3.661,3.425
3.661,3.425
3.661,3.425
3.622,3.425
3.661,3.425
3.661,3.425
3.661,3.425
3.661,3.425
3.661,3.425
3.661,3.425
3.661,3.465
3.622,3.425
3.661,3.465
3.661,3.465
3.661,3.425
3.661,3.425
3.661,3.425
3.661,3.425
3.661,3.425
3.661,3.425
3.622,3.504
3.622,3.504
3.661,3.425
3.622,3.425
3.661,3.425
3.661,3.425
3.661,3.425
3.661,3.425
3.661,3.425
3.661,3.425
3.622,3.465
3.661,3.465
3.622,3.425
3.661,3.425
3.661,3.425
3.701,3.425
3.661,3.425
3.661,3.425
3.661,3.425
3.661,3.425
3.661,3.425
3.622,3.425
3.661,3.425
3.661,3.425
3.661,3.425
3.661,3.425
3.661,3.425
3.661,3.425
3.661,3.425
3.622,3.425
3.661,3.425
3.622,3.583
3.661,3.425
3.661,3.425
3.661,3.425
3.661,3.425
3.661,3.425
3.661,3.425
3.622,3.425
3.661,3.425
3.661,3.465
3.622,3.543
3.622,3.465
3.661,3.425
3.661,3.425
3.661,3.386
3.701,3.425
3.661,3.425
3.661,3.425
3.661,3.425
3.661,3.465
3.622,3.504
3.622,3.504
3.661,3.465
3.661,3.425
3.661,3.425
3.661,3.504
3.661,3.425
3.661,3.425
3.661,3.425
3.622,3.465
3.622,3.425
3.622,3.425
3.661,3.425
3.661,3.425
3.661,3.425
3.661,3.425
3.661,3.425
3.661,3.425
3.661,3.425
3.661,3.425
3.622,3.504
3.661,3.425
3.661,3.425
3.661,3.425
3.661,3.386
3.701,3.386
3.661,3.425
3.661,3.425
3.661,3.425
3.661,3.425
3.661,3.425
3.622,3.504
3.661,3.425
3.661,3.425
3.661,3.425
3.661,3.425
3.661,3.425
3.661,3.425
3.661,3.465
3.622,3.465
3.622,3.425
3.622,3.504
3.661,3.425
3.661,3.465
3.661,3.465
3.661,3.346
3.661,3.425
3.661,3.425
3.622,3.425
3.661,3.504
3.661,3.425
3.622,3.465
3.622,3.504
3.661,3.425
3.661,3.504
3.661,3.425
3.661,3.425
3.661,3.425
3.661,3.425
3.661,3.425
3.661,3.425
3.622,3.465
3.661,3.425
3.661,3.425
3.661,3.425
3.661,3.425
3.661,3.425
3.661,3.425
3.661,3.425
3.622,3.425
3.661,3.425
3.622,3.504
3.661,3.425
3.661,3.425
3.661,3.386
3.661,3.386
3.661,3.425
3.661,3.425
3.661,3.465
3.622,3.425
3.622,3.425
3.622,3.425
3.622,3.465
3.661,3.425
3.661,3.425
3.661,3.425
3.661,3.425
3.661,3.425
3.661,3.425
3.661,3.425
3.661,3.504
3.622,3.504
3.661,3.425
3.661,3.425
3.661,3.465
3.661,3.425
3.661,3.425
3.661,3.425
3.661,3.425
3.661,3.425
3.622,3.465
3.661,3.504
3.661,3.504
3.622,3.425
3.661,3.425
3.661,3.425
3.661,3.425
3.661,3.465
3.661,3.425
3.661,3.504
3.622,3.504
3.661,3.425
3.622,3.465
3.661,3.425
3.661,3.425
3.661,3.386
3.661,3.425
3.661,3.425
3.661,3.425
3.661,3.425
3.622,3.504
3.661,3.425
3.661,3.425
3.661,3.425
3.661,3.425
3.661,3.425
3.661,3.425
3.661,3.425
3.661,3.425
3.661,3.425
3.661,3.465
3.661,3.504
3.661,3.425
3.622,3.425
3.661,3.425
3.661,3.425
3.661,3.425
3.661,3.465
3.661,3.465
3.661,3.465
3.661,3.465
3.661,3.425
3.661,3.504
3.661,3.465
3.661,3.425
3.661,3.425
3.661,3.425
3.661,3.425
3.661,3.465
3.661,3.465
3.661,3.425
3.661,3.425
3.622,3.504
3.661,3.465
3.661,3.425
3.661,3.386
3.701,3.504
3.661,3.425
3.661,3.425
3.661,3.425
3.622,3.425
3.622,3.504
3.661,3.425
3.661,3.425
3.661,3.425
3.661,3.425
3.661,3.425
3.661,3.425
3.661,3.425
3.661,3.425
3.622,3.465
3.622,3.504
3.661,3.504
3.661,3.425
3.661,3.425
3.661,3.425
3.661,3.425
3.661,3.425
3.661,3.465
3.661,3.504
3.622,3.504
3.661,3.425
3.661,3.465
3.661,3.465
3.661,3.425
3.661,3.465
3.661,3.465
3.661,3.425
3.661,3.425
3.661,3.504
3.622,3.425
3.622,3.583
3.661,3.504
3.661,3.425
3.661,3.465
3.661,3.425
3.661,3.425
3.661,3.425
3.661,3.425
3.661,3.465
3.622,3.504
3.622,3.543
3.661,3.504
3.661,3.425
3.661,3.465
3.661,3.425
3.661,3.425
3.661,3.425
3.661,3.465
3.661,3.504
3.622,3.504
3.622,3.386
3.622,3.465
3.661,3.504
3.661,3.425
3.661,3.425
3.661,3.425
3.661,3.425
3.661,3.425
3.661,3.425
3.622,3.504
3.622,3.504
3.622,3.425
3.661,3.425
3.661,3.425
3.661,3.425
3.661,3.386
3.661,3.425
3.661,3.425
3.661,3.425
3.661,3.504
3.661,3.465
3.661,3.504
3.622,3.425
3.661,3.425
3.661,3.425
3.661,3.425
3.661,3.504
3.661,3.465
3.622,3.504
3.661,3.465
3.622,3.504
3.622,3.504
3.661,3.504
3.661,3.465
3.661,3.504
3.661,3.425
3.661,3.425
3.661,3.465
3.661,3.465
3.661,3.504
3.661,3.425
3.622,3.425
3.622,3.504
3.661,3.425
3.661,3.425
3.661,3.425
3.661,3.425
3.661,3.425
3.661,3.504
3.661,3.465
3.661,3.425
3.661,3.465
3.661,3.465
3.661,3.465
3.661,3.386
3.661,3.425
3.661,3.425
3.661,3.425
3.661,3.504
3.661,3.465
3.622,3.504
3.661,3.504
3.661,3.465
3.661,3.465
3.661,3.425
3.661,3.425
3.661,3.425
3.661,3.465
3.661,3.465
3.622,3.504
3.622,3.504
3.622,3.425
3.622,3.465
3.661,3.465
3.622,3.465
3.661,3.425
3.661,3.425
3.661,3.425
3.661,3.504
3.661,3.504
3.622,3.504
3.661,3.425
3.661,3.465
3.661,3.425
3.661,3.425
3.661,3.425
3.661,3.465
3.661,3.425
3.661,3.504
3.583,1.850
3.425,1.260
3.307,1.220
3.228,1.024
3.110,1.024
3.031,1.181
2.874,1.339
2.756,1.339
2.677,1.220
2.559,1.181
2.441,1.260
2.362,1.496
2.244,1.535
2.126,1.535
2.047,1.457
2.008,1.457
1.929,1.535
1.811,1.654
1.772,1.693
1.654,1.693
1.614,1.693
1.535,1.772
1.496,1.811
1.417,1.850
1.378,1.811
1.339,1.811
1.299,1.772
1.260,1.850
1.181,1.929
1.102,1.969
1.063,1.929
1.024,1.890
0.945,1.969
0.945,2.087
0.906,2.205
0.866,2.165
0.827,2.126
0.827,2.047
0.748,2.008
0.669,2.087
0.669,2.165
0.591,2.244
0.551,2.165
0.551,2.087
0.512,2.008
0.512,2.047
0.512,2.087
0.433,2.126
0.394,2.126
0.354,2.126
0.276,2.087
0.276,2.126
0.236,2.165
0.197,2.165
0.197,2.165
0.197,2.126
0.157,2.087
0.157,2.087
0.118,2.165
0.079,2.205
0.039,2.205
0.039,2.244
0.000,2.165
-0.039,2.165
-0.079,2.244
-0.079,2.244
-0.079,2.244
-0.118,2.244
-0.118,2.283
-0.157,2.283
-0.197,2.323
-0.236,2.323
-0.236,2.362
-0.276,2.323
-0.276,2.323
-0.276,2.323
-0.276,2.323
-0.276,2.323
-0.315,2.323
-0.276,2.323
-0.354,2.323
-0.394,2.402
-0.394,2.402
-0.394,2.402
-0.394,2.402
-0.394,2.402
-0.394,2.323
-0.433,2.323
-0.433,2.362
-0.512,2.402
