; CSV, generated by libsigrok4DSL 0.2.0 on Fri May 14 15:22:23 2021
; Channels (2/2)
; Sample rate: 20 MHz
; Sample count: 10 k Samples
I[A], Uout[V]
8.740,12.008
8.819,12.205
8.740,12.008
8.819,12.008
8.819,12.205
8.819,12.205
8.740,12.205
8.819,12.205
8.740,12.008
8.819,12.008
8.819,12.205
8.819,12.008
8.898,12.008
8.819,12.008
8.898,12.205
8.819,12.205
8.819,12.205
8.898,12.205
8.898,12.205
8.819,12.205
8.898,12.205
8.898,12.205
8.898,12.402
8.898,12.402
8.898,12.205
8.898,12.205
8.898,12.205
8.898,12.205
8.898,12.205
8.898,12.205
8.898,12.205
8.898,12.205
8.898,12.205
8.898,12.205
8.898,12.402
8.898,12.402
8.898,12.402
8.898,12.402
8.898,12.402
8.898,12.402
8.898,12.205
8.898,12.402
8.976,12.402
8.976,12.205
8.898,12.205
8.898,12.402
8.898,12.205
8.898,12.402
8.898,12.402
8.898,12.205
8.898,12.205
8.898,12.402
8.898,12.402
8.976,12.205
8.976,12.402
8.976,12.402
8.976,12.402
8.898,12.402
8.976,12.402
8.976,12.402
8.976,12.402
8.976,12.402
8.976,12.402
8.976,12.402
8.976,12.205
8.976,12.205
8.976,12.205
9.055,12.205
8.976,12.205
8.976,12.205
8.976,12.205
8.976,12.205
8.976,12.205
8.976,12.402
8.976,12.205
9.055,12.205
8.976,12.205
8.976,12.205
8.976,12.402
8.976,12.205
9.055,12.205
8.976,12.205
8.976,12.205
9.055,12.205
9.055,12.205
9.055,12.205
8.976,12.205
9.055,12.205
9.055,12.205
9.055,12.402
9.055,12.402
9.055,12.402
9.055,12.205
8.976,12.402
9.055,12.402
9.055,12.402
8.976,12.402
8.976,12.402
9.055,12.402
9.055,12.402
9.055,12.402
9.055,12.402
9.055,12.402
9.055,12.402
9.055,12.402
9.055,12.205
9.055,12.402
9.055,12.402
9.055,12.402
9.055,12.402
9.055,12.402
9.055,12.402
9.055,12.402
9.055,12.402
9.055,12.402
9.055,12.402
9.055,12.402
9.055,12.402
9.055,12.402
9.055,12.402
9.055,12.402
9.055,12.402
9.055,12.402
9.055,12.402
9.055,12.402
9.055,12.402
9.055,12.402
9.055,12.402
9.055,12.402
9.055,12.598
9.055,12.598
9.055,12.402
9.055,12.402
9.055,12.402
9.055,12.402
9.055,12.402
9.055,12.402
9.134,12.402
9.134,12.402
9.055,12.402
9.055,12.402
9.055,12.402
9.055,12.598
9.055,12.598
9.055,12.598
9.055,12.795
9.055,12.402
8.976,12.598
9.134,12.795
9.055,12.402
9.134,12.598
9.055,12.598
9.134,12.402
9.055,12.598
9.055,12.402
9.134,12.402
9.134,12.402
9.055,12.402
9.134,12.598
9.134,12.402
9.134,12.402
9.134,12.402
9.134,12.598
9.134,12.402
9.134,12.402
9.134,12.402
9.134,12.402
9.134,12.402
9.134,12.402
9.134,12.402
9.134,12.402
9.213,12.402
9.134,12.402
9.134,12.402
9.134,12.402
9.134,12.402
9.134,12.402
9.134,12.402
9.134,12.402
9.134,12.402
9.134,12.402
9.134,12.402
9.134,12.402
9.134,12.402
9.134,12.402
9.134,12.402
9.213,12.402
9.134,12.402
9.134,12.402
9.134,12.402
9.134,12.402
9.134,12.402
9.213,12.402
9.134,12.402
9.213,12.402
9.213,12.205
9.134,12.402
9.134,12.402
9.213,12.402
9.134,12.205
9.134,12.402
9.134,12.402
9.213,12.402
9.134,12.205
9.213,12.402
9.134,12.402
9.134,12.205
9.134,12.205
9.134,12.205
9.134,12.205
9.134,12.402
9.134,12.402
9.134,12.402
9.134,12.205
9.134,12.402
9.213,12.402
9.134,12.402
9.134,12.402
9.134,12.205
9.134,12.402
9.134,12.402
9.134,12.402
9.213,12.402
9.134,12.402
9.134,12.402
9.134,12.402
9.134,12.205
9.134,12.402
9.134,12.402
9.134,12.205
9.134,12.402
9.055,12.402
9.134,12.205
9.134,12.402
9.134,12.402
9.134,12.402
9.213,12.402
9.134,12.402
9.134,12.402
9.134,12.402
9.134,12.402
9.134,12.402
9.134,12.402
9.134,12.402
9.134,12.402
9.134,12.402
9.134,12.402
9.134,12.402
9.134,12.402
9.134,12.402
9.134,12.402
9.055,12.402
9.134,12.402
9.134,12.402
9.134,12.402
9.134,12.402
9.134,12.402
9.134,12.402
9.134,12.402
9.134,12.402
9.134,12.402
9.134,12.402
9.134,12.402
9.134,12.402
9.055,12.402
9.134,12.402
9.134,12.402
9.134,12.402
9.134,12.402
9.134,12.402
9.134,12.402
9.055,12.402
9.055,12.402
9.134,12.402
9.055,12.402
9.134,12.402
9.134,12.402
9.134,12.402
9.055,12.402
9.134,12.402
9.055,12.402
9.055,12.402
9.134,12.402
9.055,12.402
9.055,12.402
9.055,12.402
9.055,12.402
9.134,12.402
9.055,12.402
9.055,12.402
9.055,12.402
9.055,12.402
9.134,12.402
9.055,12.402
9.055,12.402
9.055,12.402
9.055,12.402
9.055,12.402
9.055,12.402
9.055,12.402
9.055,12.402
9.055,12.402
9.055,12.402
9.055,12.402
9.055,12.402
9.055,12.402
9.055,12.402
8.976,12.402
9.055,12.402
8.976,12.598
8.976,12.402
9.055,12.402
8.976,12.402
9.055,12.402
8.976,12.402
8.976,12.402
8.976,12.402
8.976,12.402
8.976,12.402
8.976,12.598
8.976,12.402
8.976,12.402
8.976,12.402
8.976,12.402
8.976,12.795
8.976,12.402
8.898,12.598
8.976,12.598
8.976,12.598
8.898,12.598
8.976,12.402
8.976,12.795
8.898,12.598
8.976,12.402
8.898,12.402
8.976,12.402
8.976,12.795
8.976,12.598
8.976,12.402
8.976,12.402
8.898,12.402
8.976,12.598
8.976,12.795
8.898,12.402
8.898,12.598
8.898,12.795
8.898,12.795
8.976,12.598
8.976,12.795
8.898,12.795
8.898,12.795
8.898,12.795
8.898,12.795
8.898,12.598
8.898,12.598
8.898,12.598
8.898,12.795
8.898,12.795
8.898,12.598
8.898,12.402
8.898,12.795
8.898,12.795
8.898,12.598
8.898,12.402
8.898,12.598
8.898,12.795
8.898,12.598
8.898,12.598
8.898,12.598
8.898,12.598
8.898,12.402
8.898,12.402
8.898,12.402
8.898,12.402
8.898,12.598
8.898,12.402
8.898,12.402
8.898,12.598
8.898,12.402
8.898,12.402
8.898,12.598
8.898,12.402
8.898,12.402
8.898,12.402
8.819,12.598
8.898,12.402
8.898,12.402
8.819,12.598
8.819,12.402
8.819,12.402
8.898,12.402
8.898,12.402
8.898,12.402
8.819,12.402
8.819,12.402
8.819,12.402
8.819,12.402
8.898,12.402
8.819,12.402
8.819,12.402
8.819,12.402
8.819,12.402
8.819,12.402
8.819,12.402
8.819,12.402
8.819,12.402
8.819,12.402
8.740,12.402
8.740,12.402
8.819,12.402
8.740,12.402
8.740,12.402
8.740,12.402
8.740,12.402
8.740,12.402
8.740,12.402
8.661,12.402
8.740,12.402
8.661,12.402
8.740,12.402
8.661,12.402
8.740,12.402
8.661,12.402
8.661,12.402
8.661,12.402
8.661,12.402
8.661,12.402
8.661,12.402
8.661,12.402
8.661,12.402
8.583,12.402
8.661,12.402
8.583,12.402
8.661,12.402
8.583,12.402
8.583,12.402
8.583,12.402
8.583,12.402
8.583,12.402
8.583,12.402
8.583,12.402
8.583,12.402
8.583,12.402
8.583,12.402
8.504,12.402
8.504,12.402
8.504,12.402
8.504,12.402
8.504,12.402
8.425,12.402
8.504,12.402
8.504,12.402
8.425,12.402
8.425,12.402
8.425,12.402
8.425,12.402
8.346,12.402
8.346,12.402
8.346,12.402
8.346,12.402
8.346,12.402
8.346,12.402
8.346,12.598
8.346,12.402
8.346,12.402
8.346,12.402
8.268,12.402
8.268,12.402
8.268,12.402
8.268,12.598
8.268,12.402
8.268,12.402
8.189,12.795
8.189,12.402
8.189,12.402
8.189,12.598
8.110,12.402
8.189,12.402
8.189,12.598
8.110,12.795
8.110,12.402
8.031,12.795
8.031,12.402
8.031,12.402
8.031,12.598
8.031,12.598
8.031,12.598
8.031,12.402
7.953,12.598
7.953,12.598
7.953,12.402
7.953,12.598
7.953,12.598
7.795,12.795
7.874,12.795
7.953,12.795
7.795,12.598
7.874,12.795
7.795,12.795
7.795,12.795
7.874,12.795
7.874,12.598
7.795,12.795
7.795,12.598
7.717,12.795
7.717,12.795
7.717,12.795
7.717,12.795
7.717,12.795
7.717,12.795
7.638,12.795
7.717,12.598
7.638,12.795
7.638,12.795
7.638,12.795
7.638,12.795
7.638,12.795
7.559,12.795
7.638,12.795
7.559,12.795
7.638,12.795
7.559,12.795
7.480,12.795
7.559,12.795
7.480,12.795
7.480,12.795
7.480,12.795
7.480,12.795
7.480,12.795
7.402,12.795
7.480,12.795
7.402,12.795
7.402,12.795
7.402,12.795
7.402,12.795
7.402,12.795
7.323,12.795
7.402,12.795
7.323,12.795
7.323,12.795
7.323,12.795
7.323,12.795
7.323,12.795
7.323,12.795
7.323,12.795
7.244,12.795
7.165,12.795
7.165,12.795
7.244,12.795
7.244,12.795
7.165,12.795
7.165,12.795
7.165,12.795
7.165,12.795
7.165,12.795
7.165,12.795
7.165,12.795
7.165,12.795
7.087,12.795
7.087,12.795
7.087,12.795
7.008,12.795
7.087,12.795
7.087,12.795
7.087,12.795
7.087,12.795
7.008,12.795
7.008,12.795
7.008,12.795
7.008,12.795
7.008,12.795
7.008,12.795
6.929,12.795
7.008,12.795
7.008,12.795
6.929,12.795
6.929,12.795
6.929,12.795
6.929,12.795
6.929,12.795
6.929,12.795
6.850,12.795
6.850,12.598
6.772,12.795
6.850,12.795
6.772,12.795
6.850,12.795
6.772,12.795
6.772,12.795
6.772,12.795
6.772,12.795
6.772,12.598
6.772,12.795
6.772,12.598
6.693,12.795
6.693,12.402
6.693,12.795
6.772,12.795
6.772,12.795
6.693,12.402
6.693,12.598
6.693,12.598
6.693,12.795
6.693,12.598
6.693,12.598
6.614,12.598
6.693,12.598
6.693,12.598
6.693,12.598
6.614,12.795
6.535,12.402
6.614,12.402
6.614,12.598
6.614,12.402
6.614,12.402
6.614,12.402
6.614,12.402
6.614,12.598
6.535,12.795
6.535,12.598
6.535,12.598
6.535,12.402
6.535,12.598
6.535,12.598
6.457,12.402
6.457,12.598
6.535,12.598
6.457,12.402
6.457,12.598
6.535,12.402
6.457,12.598
6.457,12.598
6.457,12.402
6.457,12.402
6.457,12.598
6.457,12.402
6.457,12.795
6.457,12.795
6.378,12.598
6.457,12.795
6.457,12.598
6.378,12.795
6.378,12.402
6.378,12.795
6.378,12.402
6.378,12.795
6.378,12.795
6.378,12.598
6.378,12.598
6.378,12.598
6.378,12.598
6.378,12.795
6.378,12.598
6.299,12.598
6.299,12.402
6.299,12.795
6.378,12.598
6.299,12.795
6.378,12.795
6.378,12.795
6.299,12.795
6.378,12.598
6.220,12.795
6.299,12.795
6.299,12.795
6.378,12.795
6.220,12.795
6.299,12.598
6.220,12.795
6.299,12.795
6.220,12.402
6.299,12.795
6.299,12.795
6.299,12.795
6.299,12.795
6.299,12.795
6.299,12.795
6.299,12.795
6.299,12.598
6.220,12.795
6.220,12.795
6.220,12.795
6.220,12.795
6.220,12.795
6.220,12.795
6.220,12.795
6.220,12.795
6.220,12.795
6.220,12.795
6.220,12.795
6.220,12.795
6.220,12.795
6.220,12.795
6.142,12.795
6.220,12.795
6.142,12.795
6.142,12.795
6.142,12.795
6.142,12.795
6.142,12.795
6.142,12.795
6.142,12.795
6.142,12.795
6.142,12.795
6.142,12.795
6.142,12.795
6.142,12.795
6.142,12.795
6.142,12.795
6.142,12.795
6.142,12.795
6.142,12.795
6.142,12.795
6.063,12.795
6.142,12.795
6.142,12.795
6.063,12.795
6.063,12.795
6.142,12.795
6.063,12.795
6.063,12.795
6.063,12.795
6.063,12.795
6.063,12.795
6.063,12.795
6.063,12.795
6.063,12.795
6.063,12.795
6.063,12.795
6.063,12.795
6.063,12.795
6.063,12.795
6.063,12.992
6.063,12.795
6.063,12.795
6.063,12.795
6.063,12.795
5.984,12.795
6.063,12.795
6.063,12.795
6.063,12.795
6.063,12.992
6.063,12.795
6.063,12.795
6.063,12.992
6.063,12.795
6.063,12.795
5.984,12.795
6.063,12.992
5.984,12.795
5.984,12.795
6.063,12.795
5.984,12.992
6.063,12.992
6.063,12.795
5.984,12.795
5.984,12.795
6.063,12.795
6.063,12.795
5.984,12.795
5.984,12.795
5.984,12.795
5.984,12.795
5.984,12.795
5.984,12.795
5.984,12.795
5.984,12.992
5.984,12.795
5.984,12.795
5.984,12.795
5.984,12.795
5.984,12.795
5.984,12.992
5.984,12.795
5.984,12.795
5.984,12.795
5.984,12.795
5.906,12.795
5.984,12.795
5.984,12.795
5.984,12.795
5.906,12.795
5.984,12.795
5.984,12.795
5.984,12.795
5.984,12.795
5.984,12.795
5.984,12.795
5.906,12.795
5.984,12.795
5.906,12.795
5.984,12.795
5.906,12.795
5.906,12.795
5.906,12.795
5.906,12.795
5.906,12.795
5.906,12.795
5.906,12.598
5.827,12.795
5.906,12.795
5.984,12.795
5.906,12.795
5.906,12.795
5.906,12.795
5.906,12.795
5.984,12.795
5.984,12.598
5.827,12.795
5.906,12.795
5.827,12.795
5.906,12.598
5.827,12.598
5.827,12.598
5.906,12.402
5.906,12.795
5.827,12.795
5.906,12.795
5.827,12.795
5.906,12.598
5.827,12.795
5.906,12.598
5.827,12.795
5.827,12.795
5.906,12.598
5.827,12.795
5.827,12.795
5.906,12.795
5.906,12.598
5.827,12.402
5.827,12.795
5.827,12.795
5.827,12.598
5.827,12.795
5.827,12.795
5.906,12.598
5.827,12.795
5.906,12.795
5.827,12.795
5.906,12.795
5.906,12.795
5.827,12.795
5.906,12.795
5.906,12.795
5.827,12.795
5.827,12.795
5.906,12.598
5.748,12.795
5.827,12.598
5.827,12.795
5.827,12.795
5.827,12.598
5.827,12.795
5.827,12.795
5.827,12.795
5.827,12.795
5.827,12.795
5.827,12.795
5.827,12.795
5.827,12.795
5.827,12.795
5.827,12.795
5.827,12.795
5.827,12.795
5.827,12.795
5.827,12.795
5.827,12.795
5.827,12.795
5.827,12.795
5.827,12.795
5.827,12.795
5.827,12.795
5.827,12.795
5.827,12.795
5.827,12.795
5.827,12.795
5.827,12.795
5.748,12.795
5.748,12.795
5.827,12.795
5.827,12.795
5.827,12.795
5.748,12.795
5.748,12.795
5.827,12.795
5.748,12.795
5.827,12.795
5.748,12.992
5.827,12.795
5.748,12.795
5.748,12.795
5.827,12.795
5.748,12.992
5.748,12.795
5.827,12.795
5.827,12.992
5.748,12.992
5.827,12.992
5.748,12.795
5.748,12.795
5.748,12.795
5.827,12.992
5.748,12.992
5.748,12.795
5.748,12.795
5.748,12.795
5.748,12.992
5.748,12.795
5.748,12.992
5.748,12.992
5.748,12.992
5.748,12.795
5.748,12.795
5.748,12.992
5.748,12.795
5.748,12.795
5.748,12.795
5.748,12.992
5.748,12.992
5.748,12.795
5.748,12.795
5.748,12.992
5.748,12.795
5.748,12.795
5.748,12.795
5.748,12.795
5.748,12.795
5.748,12.795
5.748,12.795
5.748,12.795
5.748,12.992
5.748,12.795
5.748,12.992
5.748,12.992
5.748,12.795
5.748,12.992
5.748,12.795
5.748,12.992
5.748,12.795
5.748,12.795
5.748,12.992
5.748,12.795
5.748,12.795
5.748,12.795
5.748,12.992
5.748,12.795
5.748,12.795
5.748,12.795
5.748,12.795
5.748,12.795
5.748,12.795
5.748,12.795
5.748,12.795
5.748,12.795
5.748,12.795
5.748,12.992
5.748,12.795
5.748,12.795
5.748,12.795
5.748,12.795
5.748,12.795
5.748,12.795
5.748,12.795
5.748,12.795
5.748,12.795
5.748,12.795
5.748,12.795
5.748,12.795
5.748,12.795
5.748,12.795
5.748,12.795
5.748,12.795
5.748,12.795
5.748,12.795
5.669,12.795
5.748,12.795
5.748,12.795
5.748,12.795
5.748,12.795
5.748,12.795
5.748,12.795
5.748,12.795
5.748,12.795
5.748,12.795
5.748,12.795
5.748,12.795
5.748,12.795
5.748,12.795
5.748,12.795
5.748,12.795
5.748,12.795
5.748,12.795
5.748,12.795
5.748,12.795
5.748,12.795
5.748,12.795
5.748,12.598
5.669,12.795
5.669,12.598
5.669,12.795
5.591,12.795
5.748,12.795
5.748,12.795
5.748,12.795
5.669,12.795
5.748,12.795
5.748,12.795
5.748,12.598
5.748,12.598
5.669,12.795
5.748,12.795
5.669,12.795
5.748,12.795
5.669,12.598
5.669,12.598
5.669,12.795
5.748,12.598
5.748,12.598
5.748,12.795
5.748,12.598
5.669,12.795
5.748,12.795
5.748,12.598
5.748,12.795
5.669,12.795
5.591,12.795
5.669,12.795
5.748,12.795
5.669,12.795
5.748,12.795
5.748,12.795
5.669,12.598
5.669,12.598
5.669,12.795
5.669,12.795
5.669,12.598
5.748,12.795
5.748,12.598
5.669,12.795
5.669,12.795
5.748,12.598
5.591,12.795
5.669,12.598
5.669,12.598
5.669,12.598
5.669,12.598
5.669,12.598
5.669,12.795
5.669,12.795
5.669,12.795
5.669,12.598
5.669,12.795
5.669,12.598
5.669,12.598
5.669,12.402
5.669,12.598
5.669,12.598
5.591,12.795
5.669,12.795
5.669,12.795
5.669,12.795
5.669,12.795
5.669,12.795
5.669,12.795
5.669,12.795
5.669,12.795
5.748,12.795
5.669,12.795
5.669,12.795
5.669,12.795
5.748,12.795
5.669,12.795
5.669,12.795
5.748,12.795
5.669,12.795
5.669,12.795
5.591,12.795
5.669,12.795
5.669,12.795
5.669,12.795
5.669,12.795
5.669,12.795
5.669,12.795
5.669,12.795
5.669,12.795
5.669,12.795
5.669,12.795
5.669,12.795
5.669,12.795
5.669,12.795
5.591,12.795
5.669,12.795
5.669,12.795
5.669,12.795
5.669,12.992
5.669,12.992
5.591,12.795
5.591,12.795
5.669,12.795
5.669,12.992
5.591,12.795
5.591,12.795
5.669,12.795
5.669,12.795
5.669,12.795
5.669,12.795
5.669,12.992
5.591,12.992
5.669,12.795
5.669,12.795
5.669,12.992
5.591,12.795
5.591,12.795
5.669,12.795
5.591,12.795
5.591,12.992
5.669,12.992
5.669,12.795
5.669,12.795
5.591,12.992
5.591,12.992
5.591,12.992
5.591,12.992
5.591,12.795
5.591,12.992
5.591,12.795
5.591,12.795
5.591,12.795
5.591,12.795
5.591,12.795
5.591,12.992
5.591,12.795
5.591,12.795
5.669,12.795
5.591,12.795
5.591,12.795
5.591,12.795
5.591,12.795
5.591,12.795
5.591,12.795
5.591,12.795
5.591,12.795
5.669,12.795
5.591,12.795
5.591,12.992
5.669,12.795
5.591,12.795
5.591,12.795
5.591,12.795
5.591,12.795
5.591,12.795
5.591,12.992
5.591,12.795
5.591,12.795
5.669,12.795
5.591,12.992
5.591,12.795
5.591,12.795
5.669,12.795
5.591,12.795
5.591,12.795
5.591,12.795
5.591,12.795
5.669,12.992
5.591,12.795
5.669,12.795
5.591,12.795
5.591,12.795
5.591,12.795
5.591,12.795
5.591,12.795
5.591,12.795
5.669,12.795
5.591,12.795
5.591,12.795
5.669,12.795
5.591,12.795
5.669,12.795
5.669,12.795
5.591,12.795
5.669,12.795
5.591,12.795
5.669,12.795
5.591,12.795
5.591,12.795
5.669,12.795
5.669,12.795
5.669,12.795
5.591,12.795
5.591,12.795
5.591,12.795
5.591,12.795
5.669,12.795
5.591,12.795
5.669,12.795
5.669,12.795
5.591,12.598
5.591,12.598
5.591,12.795
5.591,12.795
5.591,12.795
5.591,12.598
5.591,12.598
5.591,12.598
5.591,12.598
5.591,12.795
5.591,12.795
5.669,12.795
5.591,12.795
5.669,12.795
5.512,12.795
5.591,12.795
5.591,12.598
5.591,12.598
5.591,12.598
5.591,12.795
5.669,12.598
5.669,12.795
5.591,12.402
5.591,12.598
5.591,12.598
5.591,12.598
5.669,12.598
5.591,12.598
5.512,12.598
5.512,12.598
5.591,12.795
5.591,12.795
5.591,12.795
5.591,12.598
5.591,12.598
5.591,12.795
5.591,12.402
5.591,12.598
5.591,12.402
5.591,12.598
5.591,12.598
5.591,12.402
5.591,12.402
5.591,12.795
5.512,12.795
5.591,12.598
5.669,12.598
5.512,12.795
5.591,12.795
5.591,12.795
5.591,12.598
5.591,12.795
5.591,12.598
5.512,12.795
5.512,12.598
5.591,12.598
5.669,12.795
5.591,12.795
5.591,12.795
5.512,12.598
5.512,12.598
5.591,12.795
5.591,12.795
5.591,12.795
5.591,12.795
5.591,12.795
5.591,12.795
5.591,12.795
5.591,12.795
5.591,12.795
5.591,12.795
5.591,12.795
5.591,12.795
5.591,12.795
5.591,12.795
5.591,12.795
5.591,12.795
5.591,12.795
5.591,12.795
5.591,12.795
5.591,12.795
5.591,12.795
5.591,12.795
5.591,12.795
5.591,12.795
5.512,12.795
5.591,12.795
5.591,12.795
5.512,12.795
5.591,12.795
5.591,12.795
5.591,12.795
5.591,12.795
5.591,12.795
5.591,12.795
5.591,12.795
5.591,12.795
5.512,12.795
5.591,12.795
5.591,12.795
5.591,12.795
5.591,12.795
5.591,12.795
5.591,12.795
5.512,12.795
5.591,12.795
5.591,12.795
5.591,12.795
5.591,12.795
5.591,12.795
5.591,12.795
5.512,12.795
5.512,12.795
5.512,12.795
5.591,12.795
5.591,12.992
5.512,12.992
5.591,12.992
5.591,12.795
5.512,12.795
5.512,12.795
5.512,12.992
5.591,12.992
5.591,12.992
5.512,12.992
5.512,12.795
5.591,12.795
5.512,12.795
5.512,12.795
5.591,12.795
5.512,12.992
5.591,12.795
5.512,12.795
5.512,12.992
5.591,12.992
5.512,12.992
5.512,12.992
5.512,12.992
5.512,12.795
5.512,12.795
5.591,12.795
5.512,12.795
5.512,12.795
5.512,12.795
5.512,12.795
5.512,12.795
5.512,12.795
5.591,12.795
5.512,12.992
5.512,12.992
5.591,12.795
5.512,12.795
5.512,12.795
5.591,12.992
5.512,12.992
5.591,12.795
5.512,12.992
5.512,12.992
5.512,12.795
5.591,12.795
5.512,12.795
5.512,12.992
5.591,12.795
5.512,12.795
5.591,12.795
5.512,12.795
5.512,12.795
5.512,12.795
5.512,12.795
5.512,12.795
5.512,12.795
5.591,12.795
5.512,12.795
5.512,12.795
5.512,12.795
5.591,12.992
5.512,12.795
5.512,12.795
5.512,12.795
5.591,12.795
5.512,12.795
5.512,12.795
5.512,12.795
5.512,12.795
5.512,12.795
5.512,12.795
5.512,12.795
5.512,12.795
5.512,12.795
5.512,12.795
5.512,12.795
5.512,12.795
5.591,12.795
5.512,12.795
5.512,12.795
5.591,12.795
5.512,12.795
5.591,12.795
5.512,12.795
5.512,12.795
5.512,12.795
5.512,12.795
5.512,12.795
5.591,12.598
5.512,12.795
5.512,12.598
5.512,12.598
5.512,12.795
5.591,12.795
5.512,12.795
5.512,12.795
5.591,12.795
5.512,12.008
5.512,10.630
5.512,8.071
5.512,4.921
5.433,1.969
5.433,-0.197
5.433,-0.197
5.433,-0.394
5.276,-0.394
5.276,-0.394
5.197,-0.197
5.197,-0.394
5.197,-0.197
5.118,0.591
5.118,0.197
5.118,-0.197
5.039,0.591
5.039,0.000
4.961,0.000
4.961,0.591
4.961,-0.197
4.961,0.394
4.882,0.197
4.882,-0.197
4.803,0.394
4.803,-0.197
4.803,-0.197
4.724,0.197
4.803,-0.197
4.724,0.197
4.646,-0.197
4.567,-0.394
4.646,0.000
4.567,-0.394
4.567,-0.394
4.567,-0.394
4.488,-0.591
4.488,-0.394
4.488,-0.787
4.488,-0.787
4.488,-0.591
4.488,-0.984
4.488,-0.787
4.409,-0.984
4.409,-0.984
4.409,-0.984
4.331,-1.378
4.331,-0.984
4.252,-1.378
4.331,-1.378
4.252,-1.378
4.252,-1.772
4.252,-1.378
4.252,-1.772
4.252,-1.772
4.173,-1.772
4.173,-1.969
4.173,-1.772
4.173,-1.969
4.094,-1.969
4.094,-1.772
4.016,-2.165
4.016,-1.969
4.016,-2.165
4.016,-2.165
4.016,-2.165
4.016,-2.165
3.937,-2.165
3.937,-2.165
3.937,-2.362
3.937,-2.362
3.937,-2.362
3.858,-2.559
3.858,-2.362
3.858,-2.559
3.858,-2.559
3.858,-2.362
3.858,-2.362
3.858,-2.165
3.858,-2.362
3.858,-2.165
3.858,-2.362
3.780,-2.165
3.858,-2.165
3.780,-2.362
3.780,-2.165
3.780,-2.165
3.780,-2.165
3.780,-1.969
3.701,-2.165
3.701,-1.969
3.701,-1.969
3.701,-2.165
3.622,-1.969
3.701,-1.969
3.701,-1.772
3.622,-1.772
3.622,-1.772
3.622,-1.772
3.622,-1.772
3.622,-1.772
3.622,-1.772
3.622,-1.575
3.622,-1.772
3.543,-1.772
3.622,-1.772
3.622,-1.575
3.543,-1.772
3.543,-1.575
3.543,-1.378
3.543,-1.378
3.543,-1.378
3.543,-1.772
3.543,-1.378
3.543,-1.378
3.543,-1.575
3.465,-1.772
3.543,-1.378
3.543,-1.378
3.543,-1.378
